Title: * C:\Users\mn080015\OneDrive - Qorvo\Documents\QSPICE\QSPICE_on_MWJ_SIJ\Article2\Sim2\VRM_PSRR.qsch
Date: Fri Apr 14 14:30:56 2023
Plotname: AC Analysis
Plot Suggestion(s): «AC 1/V(VOUT)»
Flags: complex stepped
Abscissa: 1.000000000000000e+00 1.000000000000000e+07 dec
No. Variables: 30
No. Points: 140                  
Command: QSPICE80, Build Apr 11 2023 09:05:22
.alias freq frequency
.alias omega 2*pi*frequency
Variables:
	0	frequency	frequency
	1	V(vout)	voltage
	2	V(vin)	voltage
	3	V(n04)	voltage
	4	V(n09)	voltage
	5	V(n01)	voltage
	6	V(n02)	voltage
	7	V(n07)	voltage
	8	V(n03)	voltage
	9	V(n06)	voltage
	10	V(n08)	voltage
	11	V(n05)	voltage
	12	I(LOPEN)	current
	13	I(LESL)	current
	14	I(VM15)	current
	15	I(V15)	current
	16	I(VIN)	current
	17	I(VREF)	current
	18	I(VRIPPLE)	current
	19	Id(M_PMOS)	current
	20	Is(M_PMOS)	current
	21	Ig(M_PMOS)	current
	22	Ib(M_PMOS)	current
	23	I(RG)	current
	24	I(RFB)	current
	25	I(RESR)	current
	26	I(RLOAD)	current
	27	I(COPEN)	current
	28	I(COUT)	current
	29	x	parameter
Values:
0		1.000000000000000e+00
	6.671312130928173e+02,-6.767612986215115e+00
	1.000000000000000e+00,0.000000000000000e+00
	0.000000000000000e+00,0.000000000000000e+00
	0.000000000000000e+00,0.000000000000000e+00
	0.000000000000000e+00,0.000000000000000e+00
	0.000000000000000e+00,0.000000000000000e+00
	1.190914767984346e+05,1.604021489942186e+04
	6.671312130928173e+01,-6.767612986215115e-01
	-4.637397886895463e-04,-1.936030116666506e-02
	6.671312110942174e+02,-6.767809996539220e+00
	-2.475704747557870e-10,2.511514835557345e-12
	2.552882570786889e+00,-1.895399728639111e+01
	1.998600003637900e-03,1.970103241049539e-01
	-1.276006703768258e+02,2.111768725219312e+00
	5.956310543864571e+00,8.019943014487794e-01
	-6.679982043033114e+00,-1.292665181132412e-01
	0.000000000000000e+00,0.000000000000000e+00
	-6.679982043033114e+00,-1.292665181132412e-01
	-6.679982043033114e+00,-1.292665181132412e-01
	6.679982043033114e+00,1.292665181132412e-01
	0.000000000000000e+00,0.000000000000000e+00
	-3.470115031732176e-94,3.525490937945087e-96
	6.671312130928173e-03,-6.767612986215115e-05
	6.671312130928173e-03,-6.767612986215115e-05
	1.998599941543944e-03,1.970103241051291e-01
	6.671312130928174e+00,-6.767612986215114e-02
	1.216443598329613e+02,-2.913763026668084e+00
	1.998600003637900e-03,1.970103241049540e-01
	0.000000000000000e+00,0.000000000000000e+00
1		1.258925411794167e+00
	6.668170469257192e+02,-1.452141130996563e+01
	1.000000000000000e+00,0.000000000000000e+00
	0.000000000000000e+00,0.000000000000000e+00
	0.000000000000000e+00,0.000000000000000e+00
	0.000000000000000e+00,0.000000000000000e+00
	0.000000000000000e+00,0.000000000000000e+00
	1.200676050403886e+05,1.120835425800282e+04
	6.668170469257193e+01,-1.452141130996563e+00
	-5.019845782217982e-04,-1.535823450938541e-02
	6.668170415269598e+02,-1.452165921446930e+01
	-3.921879814813464e-10,8.540903816846323e-12
	1.416976265403117e+00,-1.517909857744685e+01
	5.398759323581660e-03,2.479045036712404e-01
	-1.274896979648536e+02,3.410347561968627e+00
	6.005116157077310e+00,5.603813992408978e-01
	-6.680237399121650e+00,-1.025451764569248e-01
	0.000000000000000e+00,0.000000000000000e+00
	-6.680237399121650e+00,-1.025451764569248e-01
	-6.680237399121649e+00,-1.025451764569248e-01
	6.680237399121649e+00,1.025451764569248e-01
	0.000000000000000e+00,0.000000000000000e+00
	-3.468478428135946e-94,7.564720985631998e-96
	6.668170469257193e-03,-1.452141130996563e-04
	6.668170469257192e-03,-1.452141130996563e-04
	5.398759412855725e-03,2.479045036682948e-01
	6.668170469257192e+00,-1.452141130996563e-01
	1.214845818077763e+02,-3.970728961209527e+00
	5.398759323581659e-03,2.479045036712403e-01
	0.000000000000000e+00,0.000000000000000e+00
2		1.584893192461114e+00
	6.662949333976550e+02,-2.302712959850966e+01
	1.000000000000000e+00,0.000000000000000e+00
	0.000000000000000e+00,0.000000000000000e+00
	0.000000000000000e+00,0.000000000000000e+00
	0.000000000000000e+00,0.000000000000000e+00
	0.000000000000000e+00,0.000000000000000e+00
	1.206330616317877e+05,6.887634946595006e+03
	6.662949333976550e+01,-2.302712959850966e+00
	-5.248272112628325e-04,-1.218342594109137e-02
	6.662949226200216e+02,-2.302744144741945e+01
	-6.210893668740179e-10,2.146511783867240e-11
	6.916573887943153e-01,-1.211396971976595e+01
	1.077763354756334e-02,3.118489097877836e-01
	-1.273581072042796e+02,4.881998905124550e+00
	6.033387658870444e+00,3.443236846204543e-01
	-6.680389916771677e+00,-8.134734250968828e-02
	0.000000000000000e+00,0.000000000000000e+00
	-6.680389916771677e+00,-8.134734250968828e-02
	-6.680389916771677e+00,-8.134734250968828e-02
	6.680389916771677e+00,8.134734250968828e-02
	0.000000000000000e+00,0.000000000000000e+00
	-3.465758552582308e-94,1.199565295648430e-95
	6.662949333976551e-03,-2.302712959850966e-04
	6.662949333976550e-03,-2.302712959850966e-04
	1.077763340617821e-02,3.118489097921895e-01
	6.662949333976550e+00,-2.302712959850966e-01
	1.213247195454092e+02,-5.226322589745002e+00
	1.077763354756334e-02,3.118489097877836e-01
	0.000000000000000e+00,0.000000000000000e+00
3		1.995262314968880e+00
	6.654543028301537e+02,-3.272582971713987e+01
	1.000000000000000e+00,0.000000000000000e+00
	0.000000000000000e+00,0.000000000000000e+00
	0.000000000000000e+00,0.000000000000000e+00
	0.000000000000000e+00,0.000000000000000e+00
	0.000000000000000e+00,0.000000000000000e+00
	1.209007496669714e+05,2.894130432108872e+03
	6.654543028301536e+01,-3.272582971713987e+00
	-5.383978963137457e-04,-9.662235196837539e-03
	6.654542835471983e+02,-3.272622181633540e+01
	-9.831183793421396e-10,4.834855068122401e-11
	2.308552106455672e-01,-9.643820701842467e+00
	1.928295536510908e-02,3.920991955366907e-01
	-1.271783753388500e+02,6.605056904770531e+00
	6.046769922835138e+00,1.446237027278678e-01
	-6.680480526684707e+00,-6.451364006862427e-02
	0.000000000000000e+00,0.000000000000000e+00
	-6.680480526684707e+00,-6.451364006862427e-02
	-6.680480526684708e+00,-6.451364006862427e-02
	6.680480526684708e+00,6.451364006862427e-02
	0.000000000000000e+00,0.000000000000000e+00
	-3.461379408186903e-94,1.704805170442164e-95
	6.654543028301537e-03,-3.272582971713987e-04
	6.654543028301537e-03,-3.272582971713987e-04
	1.928295534980862e-02,3.920991955368436e-01
	6.654543028301537e+00,-3.272582971713986e-01
	1.211316054160149e+02,-6.749680607498398e+00
	1.928295536510908e-02,3.920991955366906e-01
	0.000000000000000e+00,0.000000000000000e+00
4		2.511886431509581e+00
	6.641173453030309e+02,-4.410587907047353e+01
	1.000000000000000e+00,0.000000000000000e+00
	0.000000000000000e+00,0.000000000000000e+00
	0.000000000000000e+00,0.000000000000000e+00
	0.000000000000000e+00,0.000000000000000e+00
	0.000000000000000e+00,0.000000000000000e+00
	1.209252466824420e+05,-9.572239788176730e+02
	6.641173453030309e+01,-4.410587907047353e+00
	-5.461141620707753e-04,-7.658068400424672e-03
	6.641173125856101e+02,-4.410637170237045e+01
	-1.555007156668591e-09,1.032735065811066e-10
	-6.064991917804499e-02,-7.661911223218781e+00
	3.271742077315688e-02,4.926318969332265e-01
	-1.269125886830139e+02,8.667100572036682e+00
	6.047991373635766e+00,-4.797302806862574e-02
	-6.680532047309240e+00,-5.113204743428369e-02
	0.000000000000000e+00,0.000000000000000e+00
	-6.680532047309240e+00,-5.113204743428369e-02
	-6.680532047309240e+00,-5.113204743428369e-02
	6.680532047309240e+00,5.113204743428369e-02
	0.000000000000000e+00,0.000000000000000e+00
	-3.454414719668381e-94,2.297632522571582e-95
	6.641173453030310e-03,-4.410587907047353e-04
	6.641173453030310e-03,-4.410587907047353e-04
	3.271742082233686e-02,4.926318969253884e-01
	6.641173453030309e+00,-4.410587907047353e-01
	1.208645973093781e+02,-8.619127543968053e+00
	3.271742077315686e-02,4.926318969332263e-01
	0.000000000000000e+00,0.000000000000000e+00
5		3.162277660168380e+00
	6.620038760620548e+02,-5.771537104223474e+01
	1.000000000000000e+00,0.000000000000000e+00
	0.000000000000000e+00,0.000000000000000e+00
	0.000000000000000e+00,0.000000000000000e+00
	0.000000000000000e+00,0.000000000000000e+00
	0.000000000000000e+00,0.000000000000000e+00
	1.207118040853703e+05,-4.849622889174830e+03
	6.620038760620548e+01,-5.771537104223474e+00
	-5.498439669984957e-04,-6.063045796075248e-03
	6.620038221639035e+02,-5.771598925536267e+01
	-2.456677154633439e-09,2.141823770704692e-10
	-2.440773938677373e-01,-6.075330019001099e+00
	5.389815142311430e-02,6.182131279389700e-01
	-1.265050411104585e+02,1.116757448068225e+01
	6.037313869112035e+00,-2.426276355521181e-01
	-6.680556950790446e+00,-4.048226380740635e-02
	0.000000000000000e+00,0.000000000000000e+00
	-6.680556950790446e+00,-4.048226380740635e-02
	-6.680556950790446e+00,-4.048226380740635e-02
	6.680556950790446e+00,4.048226380740635e-02
	0.000000000000000e+00,0.000000000000000e+00
	-3.443404904727923e-94,3.006599490898683e-95
	6.620038760620548e-03,-5.771537104223474e-04
	6.620038760620548e-03,-5.771537104223473e-04
	5.389815135004028e-02,6.182131279359737e-01
	6.620038760620548e+00,-5.771537104223474e-01
	1.204677272413465e+02,-1.092494684513013e+01
	5.389815142311428e-02,6.182131279389699e-01
	0.000000000000000e+00,0.000000000000000e+00
6		3.981071705534974e+00
	6.586782826363533e+02,-7.416390636060056e+01
	1.000000000000000e+00,0.000000000000000e+00
	0.000000000000000e+00,0.000000000000000e+00
	0.000000000000000e+00,0.000000000000000e+00
	0.000000000000000e+00,0.000000000000000e+00
	0.000000000000000e+00,0.000000000000000e+00
	1.202174457163726e+05,-8.963766773927287e+03
	6.586782826363533e+01,-7.416390636060057e+00
	-5.504880723346680e-04,-4.791716567123665e-03
	6.586781954447110e+02,-7.416468073504707e+01
	-3.874011247928789e-09,4.361990564645012e-10
	-3.583525074880139e-01,-4.806042752923511e+00
	8.719164228042595e-02,7.743744465142897e-01
	-1.258716812528843e+02,1.421818143167213e+01
	6.012587493511615e+00,-4.483766965378919e-01
	-6.680561251408157e+00,-3.199374385167719e-02
	0.000000000000000e+00,0.000000000000000e+00
	-6.680561251408157e+00,-3.199374385167719e-02
	-6.680561251408157e+00,-3.199374385167719e-02
	6.680561251408157e+00,3.199374385167719e-02
	0.000000000000000e+00,0.000000000000000e+00
	-3.426080702665126e-94,3.863462351193532e-95
	6.586782826363533e-03,-7.416390636060058e-04
	6.586782826363533e-03,-7.416390636060057e-04
	8.719164225112763e-02,7.743744465074087e-01
	6.586782826363533e+00,-7.416390636060056e-01
	1.198590937593727e+02,-1.376980473513423e+01
	8.719164228042593e-02,7.743744465142895e-01
	0.000000000000000e+00,0.000000000000000e+00
7		5.011872336272725e+00
	6.534733908347888e+02,-9.410213783963263e+01
	1.000000000000000e+00,0.000000000000000e+00
	0.000000000000000e+00,0.000000000000000e+00
	0.000000000000000e+00,0.000000000000000e+00
	0.000000000000000e+00,0.000000000000000e+00
	0.000000000000000e+00,0.000000000000000e+00
	1.193443669022439e+05,-1.347513506425206e+04
	6.534733908347889e+01,-9.410213783963263e+00
	-5.482596087787244e-04,-3.776261771736562e-03
	6.534732515570588e+02,-9.410310501570066e+01
	-6.091375970360552e-09,8.771857015773083e-10
	-4.279106907361599e-01,-3.789850326484763e+00
	1.392777300063733e-01,9.671760680112003e-01
	-1.248853770762852e+02,1.793897745370831e+01
	5.968920316517850e+00,-6.739958392332606e-01
	-6.680546372211696e+00,-2.521366824380917e-02
	0.000000000000000e+00,0.000000000000000e+00
	-6.680546372211696e+00,-2.521366824380917e-02
	-6.680546372211696e+00,-2.521366824380917e-02
	6.680546372211696e+00,2.521366824380917e-02
	0.000000000000000e+00,0.000000000000000e+00
	-3.398966565203695e-94,4.902115928771863e-95
	6.534733908347889e-03,-9.410213783963263e-04
	6.534733908347888e-03,-9.410213783963264e-04
	1.392777299997761e-01,9.671760680305397e-01
	6.534733908347889e+00,-9.410213783963264e-01
	1.189164567597674e+02,-1.726498161447505e+01
	1.392777300063733e-01,9.671760680111999e-01
	0.000000000000000e+00,0.000000000000000e+00
8		6.309573444801935e+00
	6.453893337734524e+02,-1.181575561814576e+02
	1.000000000000000e+00,0.000000000000000e+00
	0.000000000000000e+00,0.000000000000000e+00
	0.000000000000000e+00,0.000000000000000e+00
	0.000000000000000e+00,0.000000000000000e+00
	0.000000000000000e+00,0.000000000000000e+00
	1.179263457267825e+05,-1.854404993444344e+04
	6.453893337734524e+01,-1.181575561814576e+01
	-5.427944822959262e-04,-2.962817456344687e-03
	6.453891136108014e+02,-1.181587587209885e+02
	-9.534748142943540e-09,1.745635278823463e-09
	-4.677616904347192e-01,-2.974616444956658e+00
	2.201626511608618e-01,1.202539530890087e+00
	-1.233565832787532e+02,2.244616618598168e+01
	5.897998699610985e+00,-9.275027693990331e-01
	-6.680509882186804e+00,-1.978239352217581e-02
	0.000000000000000e+00,0.000000000000000e+00
	-6.680509882186804e+00,-1.978239352217581e-02
	-6.680509882186805e+00,-1.978239352217581e-02
	6.680509882186805e+00,1.978239352217581e-02
	0.000000000000000e+00,0.000000000000000e+00
	-3.356853829192306e-94,6.155248451942510e-95
	6.453893337734525e-03,-1.181575561814576e-03
	6.453893337734526e-03,-1.181575561814576e-03
	2.201626510895949e-01,1.202539530893887e+00
	6.453893337734525e+00,-1.181575561814576e+00
	1.174585845791423e+02,-2.151866341658265e+01
	2.201626511608618e-01,1.202539530890087e+00
	0.000000000000000e+00,0.000000000000000e+00
9		7.943282347242818e+00
	6.329780290280431e+02,-1.467911028806517e+02
	1.000000000000000e+00,0.000000000000000e+00
	0.000000000000000e+00,0.000000000000000e+00
	0.000000000000000e+00,0.000000000000000e+00
	0.000000000000000e+00,0.000000000000000e+00
	0.000000000000000e+00,0.000000000000000e+00
	1.157108943529066e+05,-2.429155351765260e+04
	6.329780290280431e+01,-1.467911028806517e+01
	-5.331688081111273e-04,-2.308680073934523e-03
	6.329776846925010e+02,-1.467925876743845e+02
	-1.482094821315493e-08,3.437096429480227e-09
	-4.867157279911935e-01,-2.318432114791684e+00
	3.443355421107254e-01,1.484793732814603e+00
	-1.210113737264775e+02,2.782493409033607e+01
	5.787194568393294e+00,-1.214950766571856e+00
	-6.680445612660434e+00,-1.541479298414981e-02
	0.000000000000000e+00,0.000000000000000e+00
	-6.680445612660434e+00,-1.541479298414981e-02
	-6.680445612660435e+00,-1.541479298414981e-02
	6.680445612660435e+00,1.541479298414981e-02
	0.000000000000000e+00,0.000000000000000e+00
	-3.292198916895841e-94,7.646872006877684e-95
	6.329780290280432e-03,-1.467911028806517e-03
	6.329780290280432e-03,-1.467911028806517e-03
	3.443355420813532e-01,1.484793732799972e+00
	6.329780290280431e+00,-1.467911028806517e+00
	1.152241791580842e+02,-2.660998332376422e+01
	3.443355421107253e-01,1.484793732814603e+00
	0.000000000000000e+00,0.000000000000000e+00
10		1.000000000000001e+01
	6.142558813721976e+02,-1.800268938577859e+02
	1.000000000000000e+00,0.000000000000000e+00
	0.000000000000000e+00,0.000000000000000e+00
	0.000000000000000e+00,0.000000000000000e+00
	0.000000000000000e+00,0.000000000000000e+00
	0.000000000000000e+00,0.000000000000000e+00
	1.123454216516865e+05,-3.075222788371528e+04
	6.142558813721976e+01,-1.800268938577859e+01
	-5.178943074222398e-04,-1.780243297332365e-03
	6.142553497299435e+02,-1.800287078134744e+02
	-2.279483946045420e-08,6.680813597611490e-09
	-4.894368795447180e-01,-1.788032927203459e+00
	5.316422539677084e-01,1.813955688558738e+00
	-1.174748586120733e+02,3.407832802634694e+01
	5.618873322037219e+00,-1.538068995671494e+00
	-6.680343626565127e+00,-1.188648102421183e-02
	0.000000000000000e+00,0.000000000000000e+00
	-6.680343626565127e+00,-1.188648102421183e-02
	-6.680343626565127e+00,-1.188648102421183e-02
	6.680343626565127e+00,1.188648102421183e-02
	0.000000000000000e+00,0.000000000000000e+00
	-3.194668573429101e-94,9.378242877877416e-95
	6.142558813721976e-03,-1.800268938577859e-03
	6.142558813721976e-03,-1.800268938577859e-03
	5.316422540317944e-01,1.813955688533042e+00
	6.142558813721976e+00,-1.800268938577859e+00
	1.118559852900361e+02,-3.254025903067545e+01
	5.316422539677084e-01,1.813955688558739e+00
	0.000000000000000e+00,0.000000000000000e+00
11		1.258925411794168e+01
	5.867500883249924e+02,-2.170180433230542e+02
	1.000000000000000e+00,0.000000000000000e+00
	0.000000000000000e+00,0.000000000000000e+00
	0.000000000000000e+00,0.000000000000000e+00
	0.000000000000000e+00,0.000000000000000e+00
	0.000000000000000e+00,0.000000000000000e+00
	1.073868299338400e+05,-3.779718298122745e+04
	5.867500883249924e+01,-2.170180433230542e+01
	-4.949996758018773e-04,-1.351557021990880e-03
	5.867492815026147e+02,-2.170202246978596e+02
	-3.450961838566565e-08,1.276402949674760e-08
	-4.778367514824437e-01,-1.357597894649168e+00
	8.068223776986870e-01,2.181374805385069e+00
	-1.122798674649689e+02,4.104519032430465e+01
	5.370873787611623e+00,-1.890410799985057e+00
	-6.680190761726529e+00,-9.024191760254393e-03
	0.000000000000000e+00,0.000000000000000e+00
	-6.680190761726529e+00,-9.024191760254393e-03
	-6.680190761726529e+00,-9.024191760254393e-03
	6.680190761726529e+00,9.024191760254393e-03
	0.000000000000000e+00,0.000000000000000e+00
	-3.051381088866323e-94,1.130524376415165e-94
	5.867500883249924e-03,-2.170180433230542e-03
	5.867500883249924e-03,-2.170180433230542e-03
	8.068223776263039e-01,2.181374805417136e+00
	5.867500883249924e+00,-2.170180433230542e+00
	1.069089936773573e+02,-3.915477952431960e+01
	8.068223776986868e-01,2.181374805385069e+00
	0.000000000000000e+00,0.000000000000000e+00
12		1.584893192461115e+01
	5.478678032420432e+02,-2.554949610468837e+02
	1.000000000000000e+00,0.000000000000000e+00
	0.000000000000000e+00,0.000000000000000e+00
	0.000000000000000e+00,0.000000000000000e+00
	0.000000000000000e+00,0.000000000000000e+00
	0.000000000000000e+00,0.000000000000000e+00
	1.003689897446675e+05,-4.503557707694863e+04
	5.478678032420433e+01,-2.554949610468837e+01
	-4.623685480473832e-04,-1.003363736324027e-03
	5.478666074258663e+02,-2.554975252507888e+02
	-5.106959588269331e-08,2.381629978306708e-08
	-4.522471660044047e-01,-1.007905201472038e+00
	1.195816176971358e+00,2.564203905063958e+00
	-1.049366259396473e+02,4.829590959516869e+01
	5.019882898615675e+00,-2.252428320111754e+00
	-6.679972887416072e+00,-6.699344988445812e-03
	0.000000000000000e+00,0.000000000000000e+00
	-6.679972887416072e+00,-6.699344988445812e-03
	-6.679972887416072e+00,-6.699344988445812e-03
	6.679972887416072e+00,6.699344988445812e-03
	0.000000000000000e+00,0.000000000000000e+00
	-2.848829400426470e-94,1.330964361727156e-94
	5.478678032420433e-03,-2.554949610468837e-03
	5.478678032420433e-03,-2.554949610468838e-03
	1.195816176959852e+00,2.564203905052409e+00
	5.478678032420432e+00,-2.554949610468837e+00
	9.991674304103161e+01,-4.604348127505692e+01
	1.195816176971357e+00,2.564203905063957e+00
	0.000000000000000e+00,0.000000000000000e+00
13		1.995262314968881e+01
	4.957961304681750e+02,-2.913585138613094e+02
	1.000000000000000e+00,0.000000000000000e+00
	0.000000000000000e+00,0.000000000000000e+00
	0.000000000000000e+00,0.000000000000000e+00
	0.000000000000000e+00,0.000000000000000e+00
	0.000000000000000e+00,0.000000000000000e+00
	9.096582926409396e+04,-5.174209219977179e+04
	4.957961304681750e+01,-2.913585138613094e+01
	-4.185160363343647e-04,-7.223097238909321e-04
	4.957944137073518e+02,-2.913614351828127e+02
	-7.324689503295939e-08,4.304469729682195e-08
	-4.127281692622733e-01,-7.256019089734893e-01
	1.716760823197928e+00,2.921321503235653e+00
	-9.510269396703671e+01,5.505553861793430e+01
	4.549592453688986e+00,-2.587845231498745e+00
	-6.679680089207466e+00,-4.822779470367148e-03
	0.000000000000000e+00,0.000000000000000e+00
	-6.679680089207466e+00,-4.822779470367148e-03
	-6.679680089207466e+00,-4.822779470367148e-03
	6.679680089207466e+00,4.822779470367148e-03
	0.000000000000000e+00,0.000000000000000e+00
	-2.577569488162216e-94,1.517790397298798e-94
	4.957961304681750e-03,-2.913585138613094e-03
	4.957961304681750e-03,-2.913585138613094e-03
	1.716760823171626e+00,2.921321503265517e+00
	4.957961304681750e+00,-2.913585138613094e+00
	9.055310151334773e+01,-5.246769338643555e+01
	1.716760823197928e+00,2.921321503235654e+00
	0.000000000000000e+00,0.000000000000000e+00
14		2.511886431509582e+01
